
**** 10/09/17 19:18:06 ******* PSpice Lite (March 2016) ******* ID# 10813 ****

 ** Profile: "SCHEMATIC1-sim2"  [ c:\users\vitor.user-pc\documents\izabela\cktseletronicos\circuitoseletronicosi\circuitos eletronico


 ****     CIRCUIT DESCRIPTION


******************************************************************************




** Creating circuit file "sim2.cir" 
** WARNING: THIS AUTOMATICALLY GENERATED FILE MAY BE OVERWRITTEN BY SUBSEQUENT SIMULATIONS

*Libraries: 
* Profile Libraries :
* Local Libraries :
.LIB "../../../circuitos eletronicos - projeto 1-PSpiceFiles/PSpiceModelApps/PSpiceModelApps_Include.lib" 
* From [PSPICE NETLIST] section of C:\Users\Vitor.user-PC\AppData\Roaming\SPB_Data\cdssetup\OrCAD_PSpice\17.2.0\PSpice.ini file:
.lib "nomd.lib" 

*Analysis directives: 
.TRAN  0 40m 500u 1m 
.OPTIONS ADVCONV
.PROBE64 V(alias(*)) I(alias(*)) W(alias(*)) D(alias(*)) NOISE(alias(*)) 
.INC "..\SCHEMATIC1.net" 



**** INCLUDING SCHEMATIC1.net ****
* source CIRCUITOS ELETRONICOS - PROJETO 1
D_D1         0 N14478 Dbreak 
D_D2         N14478 N14486 Dbreak 
D_D3         0 N14482 Dbreak 
D_D4         N14482 N14486 Dbreak 
V_V2         N24773 0  AC 0
+SIN 0 127 60 0 0 0
X_TX1         N24773 0 N14478 0 N14482 CETAPS_Model4
C_C1         0 N14486  8m  TC=0,0 
R_R1         0 N30495  2.5 TC=0,0 
X_U1         N14486 N30495 0 LM7805C
D_D6         N37062 N34338 Dbreak 
D_D8         N34528 N34338 Dbreak 
C_C2         0 N34338  1m  TC=0,0 
X_TX2         N34346 0 N37062 0 N34528 CETAPS_Model4
V_V3         N34346 0  AC 0
+SIN 0 180 60 0 0 0
X_U3         N34338 N35335 0 LM7805C
X_U4         N34338 N35335 0 LM7805C
R_R2         0 N35335  2.4 TC=0,0 
C_C5         0 N35335  9.1u  TC=0,0 

**** RESUMING sim2.cir ****
.END

**** 10/09/17 19:18:06 ******* PSpice Lite (March 2016) ******* ID# 10813 ****

 ** Profile: "SCHEMATIC1-sim2"  [ c:\users\vitor.user-pc\documents\izabela\cktseletronicos\circuitoseletronicosi\circuitos eletronico


 ****     Diode MODEL PARAMETERS


******************************************************************************




               Dbreak          X_U1.x1.Dlim    X_U1.x1.Dz      X_U3.x1.Dlim    
          IS   10.000000E-15   10.000000E-15   50.000000E-15   10.000000E-15 
          BV                                    7.11                         
         IBV                                   50.000000E-09                 
          RS     .1                             3                            
         CJO  100.000000E-15                                                 
          VJ                     .7                              .7          


               X_U3.x1.Dz      X_U4.x1.Dlim    X_U4.x1.Dz      
          IS   50.000000E-15   10.000000E-15   50.000000E-15 
          BV    7.11                            7.11         
         IBV   50.000000E-09                   50.000000E-09 
          RS    3                               3            
          VJ                     .7                          


**** 10/09/17 19:18:06 ******* PSpice Lite (March 2016) ******* ID# 10813 ****

 ** Profile: "SCHEMATIC1-sim2"  [ c:\users\vitor.user-pc\documents\izabela\cktseletronicos\circuitoseletronicosi\circuitos eletronico


 ****     BJT MODEL PARAMETERS


******************************************************************************




               X_U1.x1.Npn1    X_U3.x1.Npn1    X_U4.x1.Npn1    
               NPN             NPN             NPN             
       LEVEL    1               1               1            
          IS   10.000000E-15   10.000000E-15   10.000000E-15 
          BF   50              50              50            
          NF    1               1               1            
          BR    1               1               1            
          NR    1               1               1            
         ISS    0               0               0            
          RE    0               0               0            
          RC    0               0               0            
         CJE    0               0               0            
         VJE     .75             .75             .75         
         CJC    0               0               0            
         VJC     .75             .75             .75         
         MJC     .33             .33             .33         
        XCJC    1               1               1            
         CJS    0               0               0            
         VJS     .75             .75             .75         
          KF    0               0               0            
          AF    1               1               1            
          CN    2.42            2.42            2.42         
           D     .87             .87             .87         


**** 10/09/17 19:18:06 ******* PSpice Lite (March 2016) ******* ID# 10813 ****

 ** Profile: "SCHEMATIC1-sim2"  [ c:\users\vitor.user-pc\documents\izabela\cktseletronicos\circuitoseletronicosi\circuitos eletronico


 ****     Voltage Controlled Switch MODEL PARAMETERS


******************************************************************************




               X_U1.x1.Sbg1    X_U3.x1.Sbg1    X_U4.x1.Sbg1    
         RON    1               1               1            
        ROFF    1.000000E+06    1.000000E+06    1.000000E+06 
         VON    3.7             3.7             3.7          
        VOFF    3               3               3            


**** 10/09/17 19:18:06 ******* PSpice Lite (March 2016) ******* ID# 10813 ****

 ** Profile: "SCHEMATIC1-sim2"  [ c:\users\vitor.user-pc\documents\izabela\cktseletronicos\circuitoseletronicosi\circuitos eletronico


 ****     INITIAL TRANSIENT SOLUTION       TEMPERATURE =   27.000 DEG C


******************************************************************************



 NODE   VOLTAGE     NODE   VOLTAGE     NODE   VOLTAGE     NODE   VOLTAGE


(N14478) 3.782E-30 (N14482) 3.777E-30 (N14486)-48.97E-18 (N24773)    0.0000     

(N30495) 2.443E-21 (N34338)-48.76E-18 (N34346)    0.0000 (N34528)    0.0000     

(N35335) 4.660E-21 (N37062)    0.0000 (X_TX1.PI)    0.0000                      

(X_TX2.PI)    0.0000                  (X_TX1.SI1)    0.0000                     

(X_TX1.SI2)    0.0000                 (X_TX1.SI3)    0.0000                     

(X_TX1.SI4)    0.0000                 (X_TX2.SI1)    0.0000                     

(X_TX2.SI2)    0.0000                 (X_TX2.SI3)    0.0000                     

(X_TX2.SI4)    0.0000                 (X_U1.x1.4) 348.1E-12                     

(X_U1.x1.5) 348.1E-12                 (X_U1.x1.6) 21.81E-21                     

(X_U1.x1.7) 2.586E-21                 (X_U1.x1.8) 2.450E-21                     

(X_U1.x1.9) 2.450E-21                 (X_U3.x1.4) 348.1E-12                     

(X_U3.x1.5) 348.1E-12                 (X_U3.x1.6) 24.10E-21                     

(X_U3.x1.7) 4.803E-21                 (X_U3.x1.8) 4.668E-21                     

(X_U3.x1.9) 4.668E-21                 (X_U4.x1.4) 348.1E-12                     

(X_U4.x1.5) 348.1E-12                 (X_U4.x1.6) 24.10E-21                     

(X_U4.x1.7) 4.803E-21                 (X_U4.x1.8) 4.668E-21                     

(X_U4.x1.9) 4.668E-21                 (X_U1.x1.55) 143.2E-21                    

(X_U1.x1.56) 143.2E-21                (X_U3.x1.55) 144.8E-21                    

(X_U3.x1.56) 144.8E-21                (X_U4.x1.55) 144.8E-21                    

(X_U4.x1.56) 144.8E-21                (X_U1.x1.100)    7.4000                   

(X_U1.x1.101) 7.399E-06               (X_U1.x1.102)-48.97E-18                   

(X_U1.x1.105)     .0166               (X_U1.x1.106) 348.1E-12                   

(X_U1.x1.107)    1.0000               (X_U1.x1.108)   -1.0000                   

(X_U1.x1.200) 1665.0000               (X_U3.x1.100)    7.4000                   

(X_U3.x1.101) 7.399E-06               (X_U3.x1.102)-48.76E-18                   

(X_U3.x1.105)     .0166               (X_U3.x1.106) 348.1E-12                   

(X_U3.x1.107)    1.0000               (X_U3.x1.108)   -1.0000                   

(X_U3.x1.200) 1665.0000               (X_U4.x1.100)    7.4000                   

(X_U4.x1.101) 7.399E-06               (X_U4.x1.102)-48.76E-18                   

(X_U4.x1.105)     .0166               (X_U4.x1.106) 348.1E-12                   

(X_U4.x1.107)    1.0000               (X_U4.x1.108)   -1.0000                   

(X_U4.x1.200) 1665.0000               




    VOLTAGE SOURCE CURRENTS
    NAME         CURRENT

    V_V2         0.000E+00
    V_V3         0.000E+00
    X_U1.x1.Vbg  -7.400E-06
    X_U1.x1.Vgainf  -1.665E+03
    X_U1.x1.Vl1  -6.185E+02
    X_U1.x1.Vl2  -6.185E+02
    X_U3.x1.Vbg  -7.400E-06
    X_U3.x1.Vgainf  -1.665E+03
    X_U3.x1.Vl1  -6.185E+02
    X_U3.x1.Vl2  -6.185E+02
    X_U4.x1.Vbg  -7.400E-06
    X_U4.x1.Vgainf  -1.665E+03
    X_U4.x1.Vl1  -6.185E+02
    X_U4.x1.Vl2  -6.185E+02

    TOTAL POWER DISSIPATION   8.32E+06  WATTS



          JOB CONCLUDED

**** 10/09/17 19:18:06 ******* PSpice Lite (March 2016) ******* ID# 10813 ****

 ** Profile: "SCHEMATIC1-sim2"  [ c:\users\vitor.user-pc\documents\izabela\cktseletronicos\circuitoseletronicosi\circuitos eletronico


 ****     JOB STATISTICS SUMMARY


******************************************************************************



  Total job time (using Solver 1)   =         .33
